
T0C94 000:450 SEGGER J-Link V4.80g Log File (0001ms, 0298ms total)
T0C94 000:450 DLL Compiled: Feb 13 2014 20:50:02 (0001ms, 0298ms total)
T0C94 000:450 Logging started @ 2017-02-22 22:30 (0001ms, 0298ms total)
T0C94 000:451 JLINK_SetWarnOutHandler(...) (0000ms, 0298ms total)
T0C94 000:451 JLINK_OpenEx(...)
Firmware: J-Link ARM V8 compiled Jan 31 2018 18:34:52
Hardware: V8.00
S/N: 20080643
Feature(s): RDI,FlashDL,FlashBP,JFlash,GDBFull  returns O.K. (0312ms, 0610ms total)
T0C94 000:764 JLINK_SetErrorOutHandler(...) (0000ms, 0610ms total)
T0C94 000:764 JLINK_ExecCommand("ProjectFile = "E:\_Protel Project Files\_合作做的\gases analysi\gases analysi STM32F051\USER\JLinkSettings.ini"", ...)  returns 0x00 (0001ms, 0611ms total)
T0C94 000:834 JLINK_ExecCommand("Device = STM32F051C8", ...)Device "STM32F051C8" selected (64 KB flash, 8 KB RAM).  returns 0x00 (0047ms, 0658ms total)
T0C94 000:881 JLINK_ExecCommand("DisableConnectionTimeout", ...)  returns 0x01 (0000ms, 0658ms total)
T0C94 000:881 JLINK_GetHardwareVersion()  returns 0x13880 (0000ms, 0658ms total)
T0C94 000:881 JLINK_GetDLLVersion()  returns 48007 (0000ms, 0658ms total)
T0C94 000:881 JLINK_GetFirmwareString(...) (0000ms, 0658ms total)
T0C94 001:020 JLINK_GetDLLVersion()  returns 48007 (0000ms, 0658ms total)
T0C94 001:020 JLINK_GetCompileDateTime() (0000ms, 0658ms total)
T0C94 001:065 JLINK_GetFirmwareString(...) (0000ms, 0658ms total)
T0C94 001:109 JLINK_GetHardwareVersion()  returns 0x13880 (0001ms, 0659ms total)
T0C94 001:292 JLINK_TIF_Select(JLINKARM_TIF_SWD)  returns 0x00 (0005ms, 0664ms total)
T0C94 001:297 JLINK_SetSpeed(3000) (0001ms, 0665ms total)
T0C94 001:298 JLINK_GetId() >0x108 TIF>Found SWD-DP with ID 0x0BB11477 >0x0D TIF> >0x28 TIF> >0x0D TIF> >0x28 TIF> >0x0D TIF> >0x21 TIF> >0x0D TIF> >0x28 TIF> >0x0D TIF> >0x28 TIF> >0x0D TIF> >0x28 TIF> >0x0D TIF> >0x21 TIF> >0x0D TIF> >0x21 TIF> >0x0D TIF> >0x28 TIF> >0x0D TIF> >0x21 TIF> >0x0D TIF> >0x21 TIF> >0x0D TIF> >0x28 TIF> >0x0D TIF> >0x28 TIF> >0x0D TIF> >0x28 TIF> >0x0D TIF> >0x21 TIF> >0x0D TIF> >0x21 TIF> >0x0D TIF> >0x28 TIF> >0x0D TIF> >0x28 TIF> >0x108 TIF>Found SWD-DP with ID 0x0BB11477
 >0x0D TIF> >0x21 TIF> >0x0D TIF> >0x28 TIF> >0x0D TIF> >0x28 TIF> >0x0D TIF> >0x21 TIF> >0x0D TIF> >0x28 TIF> >0x0D TIF> >0x21 TIF> >0x0D TIF> >0x21 TIF> >0x0D TIF> >0x21 TIF> >0x0D TIF> >0x28 TIF> >0x0D TIF> >0x21 TIF> >0x0D TIF> >0x28 TIF> >0x0D TIF> >0x28 TIF> >0x0D TIF> >0x21 TIF> >0x0D TIF> >0x28 TIF> >0x0D TIF> >0x28 TIF> >0x0D TIF> >0x28 TIF> >0x0D TIF> >0x21 TIF> >0x0D TIF> >0x21 TIF> >0x0D TIF> >0x28 TIF> >0x0D TIF> >0x21 TIF> >0x0D TIF> >0x21 TIF>Found Cortex-M0 r0p0, Little endian. >0x0D TIF>
 >0x28 TIF> -- CPU_WriteMem(4 bytes @ 0xE0002000) -- CPU_ReadMem(4 bytes @ 0xE000EDF0) -- CPU_ReadMem(4 bytes @ 0xE0002000)FPUnit: 4 code (BP) slots and 0 literal slots -- CPU_ReadMem(4 bytes @ 0xE000EDFC) -- CPU_ReadMem(4 bytes @ 0xE0001000) -- CPU_WriteMem(4 bytes @ 0xE0001000) -- CPU_ReadMem(4 bytes @ 0xE00FF018) -- CPU_WriteMem(8192 bytes @ 0x20000000) >0x0D TIF> >0x21 TIF>  returns 0x0BB11477 (0415ms, 1080ms total)
T0C94 001:713 JLINK_GetDeviceFamily()  returns 6 (0000ms, 1080ms total)
T0C94 001:749 JLINK_ReadMem (0xE00FFFF0, 0x0010 Bytes, ...) -- CPU_ReadMem(16 bytes @ 0xE00FFFF0) -- Data:  0D 00 00 00 10 00 00 00 05 00 00 00 B1 00 00 00  returns 0x00 (0006ms, 1086ms total)
T0C94 001:755 JLINK_ReadMem (0xE00FFFD0, 0x0020 Bytes, ...) -- CPU_ReadMem(32 bytes @ 0xE00FFFD0) -- Data:  00 00 00 00 00 00 00 00 00 00 00 00 00 00 00 00 ...  returns 0x00 (0002ms, 1088ms total)
T0C94 001:757 JLINK_ReadMem (0xE00FF000, 0x0018 Bytes, ...) -- CPU_ReadMem(24 bytes @ 0xE00FF000) -- Data:  03 F0 F0 FF 03 20 F0 FF 03 30 F0 FF 00 00 00 00 ...  returns 0x00 (0001ms, 1089ms total)
T0C94 001:758 JLINK_ReadMemU32(0xE000ED00, 0x0001 Items, ...) -- CPU_ReadMem(4 bytes @ 0xE000ED00) -- Data:  00 C2 0C 41  returns 0x01 (0002ms, 1091ms total)
T0C94 001:760 JLINK_SetResetType(JLINKARM_RESET_TYPE_NORMAL)  returns JLINKARM_RESET_TYPE_NORMAL (0000ms, 1091ms total)
T0C94 001:760 JLINK_Reset() -- CPU_ReadMem(4 bytes @ 0x20000000) -- CPU_WriteMem(4 bytes @ 0x20000000) -- CPU_WriteMem(4 bytes @ 0xE0002000) -- CPU_ReadMem(4 bytes @ 0xE000EDFC) -- CPU_WriteMem(4 bytes @ 0xE000EDFC) -- CPU_ReadMem(4 bytes @ 0xE0001000) -- CPU_WriteMem(4 bytes @ 0xE0001000) (0029ms, 1120ms total)
T0C94 001:791 JLINK_Halt()  returns 0x00 (0000ms, 1120ms total)
T0C94 001:791 JLINK_IsHalted()  returns TRUE (0000ms, 1120ms total)
T0C94 001:791 JLINK_ReadMemU32(0xE000EDF0, 0x0001 Items, ...) -- CPU_ReadMem(4 bytes @ 0xE000EDF0) -- Data:  03 00 03 00  returns 0x01 (0002ms, 1122ms total)
T0C94 001:793 JLINK_WriteU32(0xE000EDF0, 0xA05F0003) -- CPU_WriteMem(4 bytes @ 0xE000EDF0)  returns 0x00 (0002ms, 1124ms total)
T0C94 001:795 JLINK_WriteU32(0xE000EDFC, 0x01000000) -- CPU_WriteMem(4 bytes @ 0xE000EDFC)  returns 0x00 (0001ms, 1125ms total)
T0C94 001:974 JLINK_GetHWStatus(...)  returns 0x00 (0001ms, 1126ms total)
T0C94 002:115 JLINK_GetNumBPUnits(Type = 0xFFFFFF00)  returns 0x04 (0000ms, 1126ms total)
T0C94 002:115 JLINK_GetNumBPUnits(Type = 0xF0)  returns 0x2000 (0000ms, 1126ms total)
T0C94 002:115 JLINK_GetNumWPUnits()  returns 0x02 (0000ms, 1126ms total)
T0C94 002:257 JLINK_GetSpeed()  returns 0x7D0 (0000ms, 1126ms total)
T0C94 002:362 JLINK_ReadMemU32(0xE000E004, 0x0001 Items, ...) -- CPU_ReadMem(4 bytes @ 0xE000E004) -- Data:  00 00 00 00  returns 0x01 (0004ms, 1130ms total)
T0C94 002:366 JLINK_Halt()  returns 0x00 (0002ms, 1132ms total)
T0C94 002:368 JLINK_IsHalted()  returns TRUE (0000ms, 1132ms total)
T0C94 002:375 JLINK_WriteMem(0x20000000, 0x0170 Bytes, ...) -- Data:  00 BE 0A E0 0D 78 2D 06 68 40 08 24 40 00 00 D3 ... -- CPU_WriteMem(368 bytes @ 0x20000000)  returns 0x170 (0005ms, 1137ms total)
T0C94 002:380 JLINK_WriteReg(R0, 0x08000000)  returns 0x00 (0000ms, 1137ms total)
T0C94 002:380 JLINK_WriteReg(R1, 0x007A1200)  returns 0x00 (0000ms, 1137ms total)
T0C94 002:380 JLINK_WriteReg(R2, 0x00000001)  returns 0x00 (0000ms, 1137ms total)
T0C94 002:380 JLINK_WriteReg(R3, 0x00000000)  returns 0x00 (0000ms, 1137ms total)
T0C94 002:381 JLINK_WriteReg(R4, 0x00000000)  returns 0x00 (0000ms, 1138ms total)
T0C94 002:381 JLINK_WriteReg(R5, 0x00000000)  returns 0x00 (0000ms, 1138ms total)
T0C94 002:381 JLINK_WriteReg(R6, 0x00000000)  returns 0x00 (0000ms, 1138ms total)
T0C94 002:381 JLINK_WriteReg(R7, 0x00000000)  returns 0x00 (0000ms, 1138ms total)
T0C94 002:381 JLINK_WriteReg(R8, 0x00000000)  returns 0x00 (0000ms, 1138ms total)
T0C94 002:381 JLINK_WriteReg(R9, 0x2000016C)  returns 0x00 (0000ms, 1138ms total)
T0C94 002:381 JLINK_WriteReg(R10, 0x00000000)  returns 0x00 (0000ms, 1138ms total)
T0C94 002:381 JLINK_WriteReg(R11, 0x00000000)  returns 0x00 (0000ms, 1138ms total)
T0C94 002:381 JLINK_WriteReg(R12, 0x00000000)  returns 0x00 (0000ms, 1138ms total)
T0C94 002:381 JLINK_WriteReg(R13 (SP), 0x20000800)  returns 0x00 (0000ms, 1138ms total)
T0C94 002:381 JLINK_WriteReg(R14, 0x20000001)  returns 0x00 (0000ms, 1138ms total)
T0C94 002:381 JLINK_WriteReg(R15 (PC), 0x20000038)  returns 0x00 (0000ms, 1138ms total)
T0C94 002:381 JLINK_WriteReg(XPSR, 0x01000000)  returns 0x00 (0000ms, 1138ms total)
T0C94 002:381 JLINK_WriteReg(MSP, 0x20000800)  returns 0x00 (0000ms, 1138ms total)
T0C94 002:381 JLINK_WriteReg(PSP, 0x20000800)  returns 0x00 (0000ms, 1138ms total)
T0C94 002:381 JLINK_WriteReg(CFBP, 0x00000000)  returns 0x00 (0000ms, 1138ms total)
T0C94 002:381 JLINK_SetBPEx(Addr = 0x20000000, Type = 0xFFFFFFF2) -- CPU_ReadMem(2 bytes @ 0x20000000)  returns 0x00000001 (0002ms, 1140ms total)
T0C94 002:383 JLINK_Go() -- CPU_WriteMem(2 bytes @ 0x20000000) -- CPU_WriteMem(4 bytes @ 0xE0002008) -- CPU_WriteMem(4 bytes @ 0xE000200C) -- CPU_WriteMem(4 bytes @ 0xE0002010) -- CPU_WriteMem(4 bytes @ 0xE0002014) -- CPU_WriteMem(4 bytes @ 0xE0001004) (0014ms, 1154ms total)
T0C94 002:398 JLINK_IsHalted() -- CPU_ReadMem(2 bytes @ 0x20000000)  returns TRUE (0010ms, 1165ms total)
T0C94 002:408 JLINK_ReadReg(R15 (PC))  returns 0x20000000 (0000ms, 1155ms total)
T0C94 002:408 JLINK_ClrBPEx(BPHandle = 0x00000001)  returns 0x00 (0000ms, 1155ms total)
T0C94 002:408 JLINK_ReadReg(R0)  returns 0x00000000 (0000ms, 1155ms total)
T0C94 002:409 JLINK_WriteReg(R0, 0x08000000)  returns 0x00 (0000ms, 1155ms total)
T0C94 002:409 JLINK_WriteReg(R1, 0x007A1200)  returns 0x00 (0000ms, 1155ms total)
T0C94 002:409 JLINK_WriteReg(R2, 0x00000001)  returns 0x00 (0000ms, 1155ms total)
T0C94 002:409 JLINK_WriteReg(R3, 0x00000000)  returns 0x00 (0000ms, 1155ms total)
T0C94 002:409 JLINK_WriteReg(R4, 0x00000000)  returns 0x00 (0000ms, 1155ms total)
T0C94 002:409 JLINK_WriteReg(R5, 0x00000000)  returns 0x00 (0000ms, 1155ms total)
T0C94 002:409 JLINK_WriteReg(R6, 0x00000000)  returns 0x00 (0000ms, 1155ms total)
T0C94 002:409 JLINK_WriteReg(R7, 0x00000000)  returns 0x00 (0000ms, 1155ms total)
T0C94 002:409 JLINK_WriteReg(R8, 0x00000000)  returns 0x00 (0000ms, 1155ms total)
T0C94 002:409 JLINK_WriteReg(R9, 0x2000016C)  returns 0x00 (0000ms, 1155ms total)
T0C94 002:409 JLINK_WriteReg(R10, 0x00000000)  returns 0x00 (0000ms, 1155ms total)
T0C94 002:409 JLINK_WriteReg(R11, 0x00000000)  returns 0x00 (0000ms, 1155ms total)
T0C94 002:409 JLINK_WriteReg(R12, 0x00000000)  returns 0x00 (0000ms, 1155ms total)
T0C94 002:409 JLINK_WriteReg(R13 (SP), 0x20000800)  returns 0x00 (0000ms, 1155ms total)
T0C94 002:409 JLINK_WriteReg(R14, 0x20000001)  returns 0x00 (0000ms, 1155ms total)
T0C94 002:409 JLINK_WriteReg(R15 (PC), 0x20000074)  returns 0x00 (0000ms, 1155ms total)
T0C94 002:409 JLINK_WriteReg(XPSR, 0x01000000)  returns 0x00 (0000ms, 1155ms total)
T0C94 002:409 JLINK_WriteReg(MSP, 0x20000800)  returns 0x00 (0000ms, 1155ms total)
T0C94 002:409 JLINK_WriteReg(PSP, 0x20000800)  returns 0x00 (0001ms, 1156ms total)
T0C94 002:410 JLINK_WriteReg(CFBP, 0x00000000)  returns 0x00 (0000ms, 1156ms total)
T0C94 002:410 JLINK_SetBPEx(Addr = 0x20000000, Type = 0xFFFFFFF2)  returns 0x00000002 (0000ms, 1156ms total)
T0C94 002:410 JLINK_Go() (0003ms, 1159ms total)
T0C94 002:413 JLINK_IsHalted()  returns FALSE (0002ms, 1161ms total)
T0C94 002:599 JLINK_IsHalted() -- CPU_ReadMem(2 bytes @ 0x20000000)  returns TRUE (0006ms, 1165ms total)
T0C94 002:605 JLINK_ReadReg(R15 (PC))  returns 0x20000000 (0001ms, 1160ms total)
T0C94 002:606 JLINK_ClrBPEx(BPHandle = 0x00000002)  returns 0x00 (0000ms, 1160ms total)
T0C94 002:606 JLINK_ReadReg(R0)  returns 0x00000000 (0000ms, 1160ms total)
T0C94 002:658 JLINK_WriteReg(R0, 0x00000001)  returns 0x00 (0000ms, 1160ms total)
T0C94 002:658 JLINK_WriteReg(R1, 0x007A1200)  returns 0x00 (0000ms, 1160ms total)
T0C94 002:658 JLINK_WriteReg(R2, 0x00000001)  returns 0x00 (0000ms, 1160ms total)
T0C94 002:658 JLINK_WriteReg(R3, 0x00000000)  returns 0x00 (0000ms, 1160ms total)
T0C94 002:658 JLINK_WriteReg(R4, 0x00000000)  returns 0x00 (0000ms, 1160ms total)
T0C94 002:658 JLINK_WriteReg(R5, 0x00000000)  returns 0x00 (0000ms, 1160ms total)
T0C94 002:658 JLINK_WriteReg(R6, 0x00000000)  returns 0x00 (0000ms, 1160ms total)
T0C94 002:658 JLINK_WriteReg(R7, 0x00000000)  returns 0x00 (0000ms, 1160ms total)
T0C94 002:658 JLINK_WriteReg(R8, 0x00000000)  returns 0x00 (0000ms, 1160ms total)
T0C94 002:658 JLINK_WriteReg(R9, 0x2000016C)  returns 0x00 (0000ms, 1160ms total)
T0C94 002:658 JLINK_WriteReg(R10, 0x00000000)  returns 0x00 (0000ms, 1160ms total)
T0C94 002:658 JLINK_WriteReg(R11, 0x00000000)  returns 0x00 (0000ms, 1160ms total)
T0C94 002:658 JLINK_WriteReg(R12, 0x00000000)  returns 0x00 (0000ms, 1160ms total)
T0C94 002:658 JLINK_WriteReg(R13 (SP), 0x20000800)  returns 0x00 (0000ms, 1160ms total)
T0C94 002:658 JLINK_WriteReg(R14, 0x20000001)  returns 0x00 (0000ms, 1160ms total)
T0C94 002:658 JLINK_WriteReg(R15 (PC), 0x20000066)  returns 0x00 (0000ms, 1160ms total)
T0C94 002:658 JLINK_WriteReg(XPSR, 0x01000000)  returns 0x00 (0000ms, 1160ms total)
T0C94 002:658 JLINK_WriteReg(MSP, 0x20000800)  returns 0x00 (0000ms, 1160ms total)
T0C94 002:658 JLINK_WriteReg(PSP, 0x20000800)  returns 0x00 (0000ms, 1160ms total)
T0C94 002:658 JLINK_WriteReg(CFBP, 0x00000000)  returns 0x00 (0000ms, 1160ms total)
T0C94 002:658 JLINK_SetBPEx(Addr = 0x20000000, Type = 0xFFFFFFF2)  returns 0x00000003 (0000ms, 1160ms total)
T0C94 002:658 JLINK_Go() (0004ms, 1164ms total)
T0C94 002:662 JLINK_IsHalted() -- CPU_ReadMem(2 bytes @ 0x20000000)  returns TRUE (0007ms, 1171ms total)
T0C94 002:669 JLINK_ReadReg(R15 (PC))  returns 0x20000000 (0000ms, 1164ms total)
T0C94 002:669 JLINK_ClrBPEx(BPHandle = 0x00000003)  returns 0x00 (0000ms, 1164ms total)
T0C94 002:669 JLINK_ReadReg(R0)  returns 0x00000000 (0000ms, 1164ms total)
T0C94 002:717 JLINK_WriteMem(0x20000000, 0x0170 Bytes, ...) -- Data:  00 BE 0A E0 0D 78 2D 06 68 40 08 24 40 00 00 D3 ... -- CPU_WriteMem(368 bytes @ 0x20000000)  returns 0x170 (0006ms, 1170ms total)
T0C94 002:723 JLINK_WriteReg(R0, 0x08000000)  returns 0x00 (0000ms, 1170ms total)
T0C94 002:723 JLINK_WriteReg(R1, 0x007A1200)  returns 0x00 (0000ms, 1170ms total)
T0C94 002:723 JLINK_WriteReg(R2, 0x00000002)  returns 0x00 (0000ms, 1170ms total)
T0C94 002:723 JLINK_WriteReg(R3, 0x00000000)  returns 0x00 (0000ms, 1170ms total)
T0C94 002:723 JLINK_WriteReg(R4, 0x00000000)  returns 0x00 (0000ms, 1170ms total)
T0C94 002:723 JLINK_WriteReg(R5, 0x00000000)  returns 0x00 (0000ms, 1170ms total)
T0C94 002:723 JLINK_WriteReg(R6, 0x00000000)  returns 0x00 (0000ms, 1170ms total)
T0C94 002:723 JLINK_WriteReg(R7, 0x00000000)  returns 0x00 (0000ms, 1170ms total)
T0C94 002:723 JLINK_WriteReg(R8, 0x00000000)  returns 0x00 (0000ms, 1170ms total)
T0C94 002:723 JLINK_WriteReg(R9, 0x2000016C)  returns 0x00 (0000ms, 1170ms total)
T0C94 002:723 JLINK_WriteReg(R10, 0x00000000)  returns 0x00 (0000ms, 1170ms total)
T0C94 002:723 JLINK_WriteReg(R11, 0x00000000)  returns 0x00 (0000ms, 1170ms total)
T0C94 002:723 JLINK_WriteReg(R12, 0x00000000)  returns 0x00 (0000ms, 1170ms total)
T0C94 002:723 JLINK_WriteReg(R13 (SP), 0x20000800)  returns 0x00 (0000ms, 1170ms total)
T0C94 002:723 JLINK_WriteReg(R14, 0x20000001)  returns 0x00 (0000ms, 1170ms total)
T0C94 002:723 JLINK_WriteReg(R15 (PC), 0x20000038)  returns 0x00 (0000ms, 1170ms total)
T0C94 002:723 JLINK_WriteReg(XPSR, 0x01000000)  returns 0x00 (0000ms, 1170ms total)
T0C94 002:723 JLINK_WriteReg(MSP, 0x20000800)  returns 0x00 (0001ms, 1171ms total)
T0C94 002:724 JLINK_WriteReg(PSP, 0x20000800)  returns 0x00 (0000ms, 1171ms total)
T0C94 002:724 JLINK_WriteReg(CFBP, 0x00000000)  returns 0x00 (0000ms, 1171ms total)
T0C94 002:724 JLINK_SetBPEx(Addr = 0x20000000, Type = 0xFFFFFFF2) -- CPU_ReadMem(2 bytes @ 0x20000000)  returns 0x00000004 (0001ms, 1172ms total)
T0C94 002:725 JLINK_Go() -- CPU_WriteMem(2 bytes @ 0x20000000) (0005ms, 1177ms total)
T0C94 002:730 JLINK_IsHalted() -- CPU_ReadMem(2 bytes @ 0x20000000)  returns TRUE (0007ms, 1184ms total)
T0C94 002:737 JLINK_ReadReg(R15 (PC))  returns 0x20000000 (0000ms, 1177ms total)
T0C94 002:737 JLINK_ClrBPEx(BPHandle = 0x00000004)  returns 0x00 (0000ms, 1177ms total)
T0C94 002:737 JLINK_ReadReg(R0)  returns 0x00000000 (0000ms, 1177ms total)
T0C94 002:738 JLINK_WriteMem(0x20000170, 0x0290 Bytes, ...) -- Data:  90 05 00 20 C9 02 00 08 EF 02 00 08 F1 02 00 08 ... -- CPU_WriteMem(656 bytes @ 0x20000170)  returns 0x290 (0009ms, 1186ms total)
T0C94 002:747 JLINK_WriteMem(0x20000400, 0x0170 Bytes, ...) -- Data:  F0 21 08 40 00 09 0B 49 0D 5C 08 48 00 68 E8 40 ... -- CPU_WriteMem(368 bytes @ 0x20000400)  returns 0x170 (0006ms, 1192ms total)
T0C94 002:753 JLINK_WriteReg(R0, 0x08000000)  returns 0x00 (0001ms, 1193ms total)
T0C94 002:754 JLINK_WriteReg(R1, 0x00000400)  returns 0x00 (0000ms, 1193ms total)
T0C94 002:754 JLINK_WriteReg(R2, 0x20000170)  returns 0x00 (0000ms, 1193ms total)
T0C94 002:754 JLINK_WriteReg(R3, 0x00000000)  returns 0x00 (0000ms, 1193ms total)
T0C94 002:754 JLINK_WriteReg(R4, 0x00000000)  returns 0x00 (0000ms, 1193ms total)
T0C94 002:754 JLINK_WriteReg(R5, 0x00000000)  returns 0x00 (0000ms, 1193ms total)
T0C94 002:754 JLINK_WriteReg(R6, 0x00000000)  returns 0x00 (0000ms, 1193ms total)
T0C94 002:754 JLINK_WriteReg(R7, 0x00000000)  returns 0x00 (0000ms, 1193ms total)
T0C94 002:754 JLINK_WriteReg(R8, 0x00000000)  returns 0x00 (0001ms, 1194ms total)
T0C94 002:755 JLINK_WriteReg(R9, 0x2000016C)  returns 0x00 (0000ms, 1194ms total)
T0C94 002:755 JLINK_WriteReg(R10, 0x00000000)  returns 0x00 (0000ms, 1194ms total)
T0C94 002:755 JLINK_WriteReg(R11, 0x00000000)  returns 0x00 (0000ms, 1194ms total)
T0C94 002:755 JLINK_WriteReg(R12, 0x00000000)  returns 0x00 (0000ms, 1194ms total)
T0C94 002:755 JLINK_WriteReg(R13 (SP), 0x20000800)  returns 0x00 (0000ms, 1194ms total)
T0C94 002:755 JLINK_WriteReg(R14, 0x20000001)  returns 0x00 (0000ms, 1194ms total)
T0C94 002:755 JLINK_WriteReg(R15 (PC), 0x200000FA)  returns 0x00 (0000ms, 1194ms total)
T0C94 002:755 JLINK_WriteReg(XPSR, 0x01000000)  returns 0x00 (0000ms, 1194ms total)
T0C94 002:755 JLINK_WriteReg(MSP, 0x20000800)  returns 0x00 (0000ms, 1194ms total)
T0C94 002:755 JLINK_WriteReg(PSP, 0x20000800)  returns 0x00 (0000ms, 1194ms total)
T0C94 002:755 JLINK_WriteReg(CFBP, 0x00000000)  returns 0x00 (0000ms, 1194ms total)
T0C94 002:755 JLINK_SetBPEx(Addr = 0x20000000, Type = 0xFFFFFFF2)  returns 0x00000005 (0000ms, 1194ms total)
T0C94 002:755 JLINK_Go() (0006ms, 1200ms total)
T0C94 002:761 JLINK_IsHalted()  returns FALSE (0002ms, 1202ms total)
T0C94 002:842 JLINK_IsHalted() -- CPU_ReadMem(2 bytes @ 0x20000000)  returns TRUE (0006ms, 1206ms total)
T0C94 002:848 JLINK_ReadReg(R15 (PC))  returns 0x20000000 (0000ms, 1200ms total)
T0C94 002:848 JLINK_ClrBPEx(BPHandle = 0x00000005)  returns 0x00 (0000ms, 1200ms total)
T0C94 002:848 JLINK_ReadReg(R0)  returns 0x00000000 (0000ms, 1200ms total)
T0C94 002:849 JLINK_WriteMem(0x20000170, 0x0290 Bytes, ...) -- Data:  04 46 0D 46 16 46 1F 46 68 46 86 70 45 70 07 70 ... -- CPU_WriteMem(656 bytes @ 0x20000170)  returns 0x290 (0009ms, 1209ms total)
T0C94 002:858 JLINK_WriteMem(0x20000400, 0x0170 Bytes, ...) -- Data:  76 00 00 20 77 00 00 20 78 00 00 20 4C 00 00 20 ... -- CPU_WriteMem(368 bytes @ 0x20000400)  returns 0x170 (0005ms, 1214ms total)
T0C94 002:863 JLINK_WriteReg(R0, 0x08000400)  returns 0x00 (0000ms, 1214ms total)
T0C94 002:863 JLINK_WriteReg(R1, 0x00000400)  returns 0x00 (0000ms, 1214ms total)
T0C94 002:863 JLINK_WriteReg(R2, 0x20000170)  returns 0x00 (0000ms, 1214ms total)
T0C94 002:863 JLINK_WriteReg(R3, 0x00000000)  returns 0x00 (0000ms, 1214ms total)
T0C94 002:863 JLINK_WriteReg(R4, 0x00000000)  returns 0x00 (0000ms, 1214ms total)
T0C94 002:863 JLINK_WriteReg(R5, 0x00000000)  returns 0x00 (0000ms, 1214ms total)
T0C94 002:863 JLINK_WriteReg(R6, 0x00000000)  returns 0x00 (0000ms, 1214ms total)
T0C94 002:863 JLINK_WriteReg(R7, 0x00000000)  returns 0x00 (0000ms, 1214ms total)
T0C94 002:863 JLINK_WriteReg(R8, 0x00000000)  returns 0x00 (0000ms, 1214ms total)
T0C94 002:863 JLINK_WriteReg(R9, 0x2000016C)  returns 0x00 (0000ms, 1214ms total)
T0C94 002:863 JLINK_WriteReg(R10, 0x00000000)  returns 0x00 (0001ms, 1215ms total)
T0C94 002:864 JLINK_WriteReg(R11, 0x00000000)  returns 0x00 (0000ms, 1215ms total)
T0C94 002:864 JLINK_WriteReg(R12, 0x00000000)  returns 0x00 (0000ms, 1215ms total)
T0C94 002:864 JLINK_WriteReg(R13 (SP), 0x20000800)  returns 0x00 (0000ms, 1215ms total)
T0C94 002:864 JLINK_WriteReg(R14, 0x20000001)  returns 0x00 (0000ms, 1215ms total)
T0C94 002:864 JLINK_WriteReg(R15 (PC), 0x200000FA)  returns 0x00 (0000ms, 1215ms total)
T0C94 002:864 JLINK_WriteReg(XPSR, 0x01000000)  returns 0x00 (0000ms, 1215ms total)
T0C94 002:864 JLINK_WriteReg(MSP, 0x20000800)  returns 0x00 (0000ms, 1215ms total)
T0C94 002:864 JLINK_WriteReg(PSP, 0x20000800)  returns 0x00 (0000ms, 1215ms total)
T0C94 002:864 JLINK_WriteReg(CFBP, 0x00000000)  returns 0x00 (0000ms, 1215ms total)
T0C94 002:864 JLINK_SetBPEx(Addr = 0x20000000, Type = 0xFFFFFFF2)  returns 0x00000006 (0000ms, 1215ms total)
T0C94 002:864 JLINK_Go() (0004ms, 1219ms total)
T0C94 002:868 JLINK_IsHalted()  returns FALSE (0002ms, 1221ms total)
T0C94 002:921 JLINK_IsHalted() -- CPU_ReadMem(2 bytes @ 0x20000000)  returns TRUE (0007ms, 1226ms total)
T0C94 002:928 JLINK_ReadReg(R15 (PC))  returns 0x20000000 (0000ms, 1219ms total)
T0C94 002:928 JLINK_ClrBPEx(BPHandle = 0x00000006)  returns 0x00 (0000ms, 1219ms total)
T0C94 002:928 JLINK_ReadReg(R0)  returns 0x00000000 (0000ms, 1219ms total)
T0C94 002:930 JLINK_WriteMem(0x20000170, 0x0290 Bytes, ...) -- Data:  05 01 05 00 BA 00 00 20 7A 00 00 20 BC 00 00 20 ... -- CPU_WriteMem(656 bytes @ 0x20000170)  returns 0x290 (0009ms, 1228ms total)
T0C94 002:939 JLINK_WriteMem(0x20000400, 0x0170 Bytes, ...) -- Data:  10 B5 40 21 A1 48 01 F0 A6 FA A0 48 00 68 03 21 ... -- CPU_WriteMem(368 bytes @ 0x20000400)  returns 0x170 (0005ms, 1233ms total)
T0C94 002:944 JLINK_WriteReg(R0, 0x08000800)  returns 0x00 (0000ms, 1233ms total)
T0C94 002:944 JLINK_WriteReg(R1, 0x00000400)  returns 0x00 (0000ms, 1233ms total)
T0C94 002:944 JLINK_WriteReg(R2, 0x20000170)  returns 0x00 (0000ms, 1233ms total)
T0C94 002:944 JLINK_WriteReg(R3, 0x00000000)  returns 0x00 (0000ms, 1233ms total)
T0C94 002:944 JLINK_WriteReg(R4, 0x00000000)  returns 0x00 (0001ms, 1234ms total)
T0C94 002:945 JLINK_WriteReg(R5, 0x00000000)  returns 0x00 (0000ms, 1234ms total)
T0C94 002:945 JLINK_WriteReg(R6, 0x00000000)  returns 0x00 (0000ms, 1234ms total)
T0C94 002:945 JLINK_WriteReg(R7, 0x00000000)  returns 0x00 (0000ms, 1234ms total)
T0C94 002:945 JLINK_WriteReg(R8, 0x00000000)  returns 0x00 (0000ms, 1234ms total)
T0C94 002:945 JLINK_WriteReg(R9, 0x2000016C)  returns 0x00 (0000ms, 1234ms total)
T0C94 002:945 JLINK_WriteReg(R10, 0x00000000)  returns 0x00 (0000ms, 1234ms total)
T0C94 002:945 JLINK_WriteReg(R11, 0x00000000)  returns 0x00 (0000ms, 1234ms total)
T0C94 002:945 JLINK_WriteReg(R12, 0x00000000)  returns 0x00 (0000ms, 1234ms total)
T0C94 002:945 JLINK_WriteReg(R13 (SP), 0x20000800)  returns 0x00 (0000ms, 1234ms total)
T0C94 002:945 JLINK_WriteReg(R14, 0x20000001)  returns 0x00 (0000ms, 1234ms total)
T0C94 002:945 JLINK_WriteReg(R15 (PC), 0x200000FA)  returns 0x00 (0000ms, 1234ms total)
T0C94 002:945 JLINK_WriteReg(XPSR, 0x01000000)  returns 0x00 (0000ms, 1234ms total)
T0C94 002:945 JLINK_WriteReg(MSP, 0x20000800)  returns 0x00 (0000ms, 1234ms total)
T0C94 002:945 JLINK_WriteReg(PSP, 0x20000800)  returns 0x00 (0000ms, 1234ms total)
T0C94 002:945 JLINK_WriteReg(CFBP, 0x00000000)  returns 0x00 (0000ms, 1234ms total)
T0C94 002:945 JLINK_SetBPEx(Addr = 0x20000000, Type = 0xFFFFFFF2)  returns 0x00000007 (0000ms, 1234ms total)
T0C94 002:945 JLINK_Go() (0004ms, 1238ms total)
T0C94 002:949 JLINK_IsHalted()  returns FALSE (0001ms, 1239ms total)
T0C94 002:951 JLINK_IsHalted()  returns FALSE (0001ms, 1239ms total)
T0C94 002:953 JLINK_IsHalted()  returns FALSE (0001ms, 1239ms total)
T0C94 002:955 JLINK_IsHalted()  returns FALSE (0001ms, 1239ms total)
T0C94 002:957 JLINK_IsHalted()  returns FALSE (0001ms, 1239ms total)
T0C94 002:959 JLINK_IsHalted()  returns FALSE (0001ms, 1239ms total)
T0C94 002:961 JLINK_IsHalted()  returns FALSE (0002ms, 1240ms total)
T0C94 002:964 JLINK_IsHalted()  returns FALSE (0001ms, 1239ms total)
T0C94 002:966 JLINK_IsHalted()  returns FALSE (0001ms, 1239ms total)
T0C94 002:968 JLINK_IsHalted()  returns FALSE (0001ms, 1239ms total)
T0C94 002:970 JLINK_IsHalted()  returns FALSE (0001ms, 1239ms total)
T0C94 002:972 JLINK_IsHalted()  returns FALSE (0002ms, 1240ms total)
T0C94 003:029 JLINK_IsHalted() -- CPU_ReadMem(2 bytes @ 0x20000000)  returns TRUE (0006ms, 1244ms total)
T0C94 003:035 JLINK_ReadReg(R15 (PC))  returns 0x20000000 (0000ms, 1238ms total)
T0C94 003:035 JLINK_ClrBPEx(BPHandle = 0x00000007)  returns 0x00 (0001ms, 1239ms total)
T0C94 003:036 JLINK_ReadReg(R0)  returns 0x00000000 (0000ms, 1239ms total)
T0C94 003:036 JLINK_WriteMem(0x20000170, 0x0290 Bytes, ...) -- Data:  C8 B2 FF F7 6B FF FF F7 EE FE FF F7 A0 FE A3 20 ... -- CPU_WriteMem(656 bytes @ 0x20000170)  returns 0x290 (0008ms, 1247ms total)
T0C94 003:045 JLINK_WriteMem(0x20000400, 0x0170 Bytes, ...) -- Data:  68 46 01 80 01 81 41 80 69 46 10 48 02 F0 FA FE ... -- CPU_WriteMem(368 bytes @ 0x20000400)  returns 0x170 (0005ms, 1252ms total)
T0C94 003:050 JLINK_WriteReg(R0, 0x08000C00)  returns 0x00 (0000ms, 1252ms total)
T0C94 003:050 JLINK_WriteReg(R1, 0x00000400)  returns 0x00 (0000ms, 1252ms total)
T0C94 003:050 JLINK_WriteReg(R2, 0x20000170)  returns 0x00 (0000ms, 1252ms total)
T0C94 003:050 JLINK_WriteReg(R3, 0x00000000)  returns 0x00 (0000ms, 1252ms total)
T0C94 003:050 JLINK_WriteReg(R4, 0x00000000)  returns 0x00 (0000ms, 1252ms total)
T0C94 003:050 JLINK_WriteReg(R5, 0x00000000)  returns 0x00 (0000ms, 1252ms total)
T0C94 003:050 JLINK_WriteReg(R6, 0x00000000)  returns 0x00 (0000ms, 1252ms total)
T0C94 003:050 JLINK_WriteReg(R7, 0x00000000)  returns 0x00 (0000ms, 1252ms total)
T0C94 003:050 JLINK_WriteReg(R8, 0x00000000)  returns 0x00 (0000ms, 1252ms total)
T0C94 003:050 JLINK_WriteReg(R9, 0x2000016C)  returns 0x00 (0000ms, 1252ms total)
T0C94 003:050 JLINK_WriteReg(R10, 0x00000000)  returns 0x00 (0000ms, 1252ms total)
T0C94 003:050 JLINK_WriteReg(R11, 0x00000000)  returns 0x00 (0000ms, 1252ms total)
T0C94 003:050 JLINK_WriteReg(R12, 0x00000000)  returns 0x00 (0000ms, 1252ms total)
T0C94 003:050 JLINK_WriteReg(R13 (SP), 0x20000800)  returns 0x00 (0000ms, 1252ms total)
T0C94 003:050 JLINK_WriteReg(R14, 0x20000001)  returns 0x00 (0000ms, 1252ms total)
T0C94 003:050 JLINK_WriteReg(R15 (PC), 0x200000FA)  returns 0x00 (0000ms, 1252ms total)
T0C94 003:050 JLINK_WriteReg(XPSR, 0x01000000)  returns 0x00 (0000ms, 1252ms total)
T0C94 003:050 JLINK_WriteReg(MSP, 0x20000800)  returns 0x00 (0001ms, 1253ms total)
T0C94 003:051 JLINK_WriteReg(PSP, 0x20000800)  returns 0x00 (0000ms, 1253ms total)
T0C94 003:051 JLINK_WriteReg(CFBP, 0x00000000)  returns 0x00 (0000ms, 1253ms total)
T0C94 003:051 JLINK_SetBPEx(Addr = 0x20000000, Type = 0xFFFFFFF2)  returns 0x00000008 (0000ms, 1253ms total)
T0C94 003:051 JLINK_Go() (0005ms, 1258ms total)
T0C94 003:056 JLINK_IsHalted()  returns FALSE (0002ms, 1260ms total)
T0C94 003:059 JLINK_IsHalted()  returns FALSE (0001ms, 1259ms total)
T0C94 003:061 JLINK_IsHalted()  returns FALSE (0001ms, 1259ms total)
T0C94 003:063 JLINK_IsHalted()  returns FALSE (0001ms, 1259ms total)
T0C94 003:065 JLINK_IsHalted()  returns FALSE (0001ms, 1259ms total)
T0C94 003:071 JLINK_IsHalted()  returns FALSE (0002ms, 1260ms total)
T0C94 003:074 JLINK_IsHalted()  returns FALSE (0001ms, 1259ms total)
T0C94 003:076 JLINK_IsHalted()  returns FALSE (0001ms, 1259ms total)
T0C94 003:078 JLINK_IsHalted()  returns FALSE (0001ms, 1259ms total)
T0C94 003:080 JLINK_IsHalted()  returns FALSE (0001ms, 1259ms total)
T0C94 003:082 JLINK_IsHalted()  returns FALSE (0001ms, 1259ms total)
T0C94 003:084 JLINK_IsHalted()  returns FALSE (0001ms, 1259ms total)
T0C94 003:140 JLINK_IsHalted() -- CPU_ReadMem(2 bytes @ 0x20000000)  returns TRUE (0007ms, 1265ms total)
T0C94 003:147 JLINK_ReadReg(R15 (PC))  returns 0x20000000 (0000ms, 1258ms total)
T0C94 003:147 JLINK_ClrBPEx(BPHandle = 0x00000008)  returns 0x00 (0000ms, 1258ms total)
T0C94 003:147 JLINK_ReadReg(R0)  returns 0x00000000 (0000ms, 1258ms total)
T0C94 003:149 JLINK_WriteMem(0x20000170, 0x0290 Bytes, ...) -- Data:  DB FF 70 BD 64 48 00 88 55 28 72 D1 62 48 40 88 ... -- CPU_WriteMem(656 bytes @ 0x20000170)  returns 0x290 (0009ms, 1267ms total)
T0C94 003:158 JLINK_WriteMem(0x20000400, 0x0170 Bytes, ...) -- Data:  40 38 03 F0 BF FA 01 21 5E 48 40 38 03 F0 96 FB ... -- CPU_WriteMem(368 bytes @ 0x20000400)  returns 0x170 (0005ms, 1272ms total)
T0C94 003:163 JLINK_WriteReg(R0, 0x08001000)  returns 0x00 (0000ms, 1272ms total)
T0C94 003:163 JLINK_WriteReg(R1, 0x00000400)  returns 0x00 (0000ms, 1272ms total)
T0C94 003:163 JLINK_WriteReg(R2, 0x20000170)  returns 0x00 (0000ms, 1272ms total)
T0C94 003:163 JLINK_WriteReg(R3, 0x00000000)  returns 0x00 (0000ms, 1272ms total)
T0C94 003:163 JLINK_WriteReg(R4, 0x00000000)  returns 0x00 (0000ms, 1272ms total)
T0C94 003:163 JLINK_WriteReg(R5, 0x00000000)  returns 0x00 (0000ms, 1272ms total)
T0C94 003:163 JLINK_WriteReg(R6, 0x00000000)  returns 0x00 (0000ms, 1272ms total)
T0C94 003:163 JLINK_WriteReg(R7, 0x00000000)  returns 0x00 (0000ms, 1272ms total)
T0C94 003:163 JLINK_WriteReg(R8, 0x00000000)  returns 0x00 (0000ms, 1272ms total)
T0C94 003:163 JLINK_WriteReg(R9, 0x2000016C)  returns 0x00 (0000ms, 1272ms total)
T0C94 003:164 JLINK_WriteReg(R10, 0x00000000)  returns 0x00 (0000ms, 1272ms total)
T0C94 003:164 JLINK_WriteReg(R11, 0x00000000)  returns 0x00 (0000ms, 1272ms total)
T0C94 003:164 JLINK_WriteReg(R12, 0x00000000)  returns 0x00 (0000ms, 1272ms total)
T0C94 003:164 JLINK_WriteReg(R13 (SP), 0x20000800)  returns 0x00 (0000ms, 1272ms total)
T0C94 003:164 JLINK_WriteReg(R14, 0x20000001)  returns 0x00 (0000ms, 1272ms total)
T0C94 003:164 JLINK_WriteReg(R15 (PC), 0x200000FA)  returns 0x00 (0000ms, 1272ms total)
T0C94 003:164 JLINK_WriteReg(XPSR, 0x01000000)  returns 0x00 (0000ms, 1272ms total)
T0C94 003:164 JLINK_WriteReg(MSP, 0x20000800)  returns 0x00 (0000ms, 1272ms total)
T0C94 003:164 JLINK_WriteReg(PSP, 0x20000800)  returns 0x00 (0000ms, 1272ms total)
T0C94 003:164 JLINK_WriteReg(CFBP, 0x00000000)  returns 0x00 (0000ms, 1272ms total)
T0C94 003:164 JLINK_SetBPEx(Addr = 0x20000000, Type = 0xFFFFFFF2)  returns 0x00000009 (0000ms, 1272ms total)
T0C94 003:164 JLINK_Go() (0004ms, 1276ms total)
T0C94 003:168 JLINK_IsHalted()  returns FALSE (0002ms, 1278ms total)
T0C94 003:171 JLINK_IsHalted()  returns FALSE (0002ms, 1278ms total)
T0C94 003:174 JLINK_IsHalted()  returns FALSE (0001ms, 1277ms total)
T0C94 003:176 JLINK_IsHalted()  returns FALSE (0001ms, 1277ms total)
T0C94 003:178 JLINK_IsHalted()  returns FALSE (0001ms, 1277ms total)
T0C94 003:180 JLINK_IsHalted()  returns FALSE (0001ms, 1277ms total)
T0C94 003:182 JLINK_IsHalted()  returns FALSE (0002ms, 1278ms total)
T0C94 003:185 JLINK_IsHalted()  returns FALSE (0001ms, 1277ms total)
T0C94 003:187 JLINK_IsHalted()  returns FALSE (0001ms, 1277ms total)
T0C94 003:189 JLINK_IsHalted()  returns FALSE (0001ms, 1277ms total)
T0C94 003:191 JLINK_IsHalted()  returns FALSE (0001ms, 1277ms total)
T0C94 003:193 JLINK_IsHalted()  returns FALSE (0001ms, 1277ms total)
T0C94 003:244 JLINK_IsHalted() -- CPU_ReadMem(2 bytes @ 0x20000000)  returns TRUE (0007ms, 1283ms total)
T0C94 003:251 JLINK_ReadReg(R15 (PC))  returns 0x20000000 (0000ms, 1276ms total)
T0C94 003:251 JLINK_ClrBPEx(BPHandle = 0x00000009)  returns 0x00 (0000ms, 1276ms total)
T0C94 003:251 JLINK_ReadReg(R0)  returns 0x00000000 (0000ms, 1276ms total)
T0C94 003:252 JLINK_WriteMem(0x20000170, 0x0290 Bytes, ...) -- Data:  DF FC 12 49 12 48 FF F7 F1 FD 10 BD 08 00 02 40 ... -- CPU_WriteMem(656 bytes @ 0x20000170)  returns 0x290 (0009ms, 1285ms total)
T0C94 003:261 JLINK_WriteMem(0x20000400, 0x0170 Bytes, ...) -- Data:  06 46 40 21 09 20 C0 06 00 F0 A5 FC 30 46 70 BD ... -- CPU_WriteMem(368 bytes @ 0x20000400)  returns 0x170 (0005ms, 1290ms total)
T0C94 003:266 JLINK_WriteReg(R0, 0x08001400)  returns 0x00 (0000ms, 1290ms total)
T0C94 003:266 JLINK_WriteReg(R1, 0x00000400)  returns 0x00 (0000ms, 1290ms total)
T0C94 003:266 JLINK_WriteReg(R2, 0x20000170)  returns 0x00 (0000ms, 1290ms total)
T0C94 003:266 JLINK_WriteReg(R3, 0x00000000)  returns 0x00 (0000ms, 1290ms total)
T0C94 003:266 JLINK_WriteReg(R4, 0x00000000)  returns 0x00 (0000ms, 1290ms total)
T0C94 003:266 JLINK_WriteReg(R5, 0x00000000)  returns 0x00 (0000ms, 1290ms total)
T0C94 003:266 JLINK_WriteReg(R6, 0x00000000)  returns 0x00 (0000ms, 1290ms total)
T0C94 003:267 JLINK_WriteReg(R7, 0x00000000)  returns 0x00 (0000ms, 1291ms total)
T0C94 003:267 JLINK_WriteReg(R8, 0x00000000)  returns 0x00 (0000ms, 1291ms total)
T0C94 003:267 JLINK_WriteReg(R9, 0x2000016C)  returns 0x00 (0000ms, 1291ms total)
T0C94 003:267 JLINK_WriteReg(R10, 0x00000000)  returns 0x00 (0000ms, 1291ms total)
T0C94 003:267 JLINK_WriteReg(R11, 0x00000000)  returns 0x00 (0000ms, 1291ms total)
T0C94 003:267 JLINK_WriteReg(R12, 0x00000000)  returns 0x00 (0000ms, 1291ms total)
T0C94 003:267 JLINK_WriteReg(R13 (SP), 0x20000800)  returns 0x00 (0000ms, 1291ms total)
T0C94 003:267 JLINK_WriteReg(R14, 0x20000001)  returns 0x00 (0000ms, 1291ms total)
T0C94 003:267 JLINK_WriteReg(R15 (PC), 0x200000FA)  returns 0x00 (0000ms, 1291ms total)
T0C94 003:267 JLINK_WriteReg(XPSR, 0x01000000)  returns 0x00 (0000ms, 1291ms total)
T0C94 003:267 JLINK_WriteReg(MSP, 0x20000800)  returns 0x00 (0000ms, 1291ms total)
T0C94 003:267 JLINK_WriteReg(PSP, 0x20000800)  returns 0x00 (0000ms, 1291ms total)
T0C94 003:267 JLINK_WriteReg(CFBP, 0x00000000)  returns 0x00 (0000ms, 1291ms total)
T0C94 003:267 JLINK_SetBPEx(Addr = 0x20000000, Type = 0xFFFFFFF2)  returns 0x0000000A (0000ms, 1291ms total)
T0C94 003:267 JLINK_Go() (0004ms, 1295ms total)
T0C94 003:271 JLINK_IsHalted()  returns FALSE (0001ms, 1296ms total)
T0C94 003:274 JLINK_IsHalted()  returns FALSE (0001ms, 1296ms total)
T0C94 003:276 JLINK_IsHalted()  returns FALSE (0001ms, 1296ms total)
T0C94 003:278 JLINK_IsHalted()  returns FALSE (0001ms, 1296ms total)
T0C94 003:280 JLINK_IsHalted()  returns FALSE (0001ms, 1296ms total)
T0C94 003:282 JLINK_IsHalted()  returns FALSE (0001ms, 1296ms total)
T0C94 003:284 JLINK_IsHalted()  returns FALSE (0001ms, 1296ms total)
T0C94 003:286 JLINK_IsHalted()  returns FALSE (0001ms, 1296ms total)
T0C94 003:288 JLINK_IsHalted()  returns FALSE (0001ms, 1296ms total)
T0C94 003:290 JLINK_IsHalted()  returns FALSE (0001ms, 1296ms total)
T0C94 003:292 JLINK_IsHalted()  returns FALSE (0001ms, 1296ms total)
T0C94 003:294 JLINK_IsHalted()  returns FALSE (0001ms, 1296ms total)
T0C94 003:296 JLINK_IsHalted()  returns FALSE (0001ms, 1296ms total)
T0C94 003:298 JLINK_IsHalted()  returns FALSE (0001ms, 1296ms total)
T0C94 003:300 JLINK_IsHalted() -- CPU_ReadMem(2 bytes @ 0x20000000)  returns TRUE (0008ms, 1303ms total)
T0C94 003:308 JLINK_ReadReg(R15 (PC))  returns 0x20000000 (0000ms, 1295ms total)
T0C94 003:308 JLINK_ClrBPEx(BPHandle = 0x0000000A)  returns 0x00 (0000ms, 1295ms total)
T0C94 003:308 JLINK_ReadReg(R0)  returns 0x00000000 (0000ms, 1295ms total)
T0C94 003:309 JLINK_WriteMem(0x20000170, 0x0290 Bytes, ...) -- Data:  00 F0 9A FF 80 20 00 90 03 21 68 46 41 71 01 21 ... -- CPU_WriteMem(656 bytes @ 0x20000170)  returns 0x290 (0008ms, 1303ms total)
T0C94 003:317 JLINK_WriteMem(0x20000400, 0x0170 Bytes, ...) -- Data:  E4 00 00 20 00 00 20 41 70 32 2E 70 69 63 3D 25 ... -- CPU_WriteMem(368 bytes @ 0x20000400)  returns 0x170 (0006ms, 1309ms total)
T0C94 003:323 JLINK_WriteReg(R0, 0x08001800)  returns 0x00 (0000ms, 1309ms total)
T0C94 003:323 JLINK_WriteReg(R1, 0x00000400)  returns 0x00 (0000ms, 1309ms total)
T0C94 003:323 JLINK_WriteReg(R2, 0x20000170)  returns 0x00 (0000ms, 1309ms total)
T0C94 003:323 JLINK_WriteReg(R3, 0x00000000)  returns 0x00 (0000ms, 1309ms total)
T0C94 003:323 JLINK_WriteReg(R4, 0x00000000)  returns 0x00 (0000ms, 1309ms total)
T0C94 003:323 JLINK_WriteReg(R5, 0x00000000)  returns 0x00 (0000ms, 1309ms total)
T0C94 003:323 JLINK_WriteReg(R6, 0x00000000)  returns 0x00 (0000ms, 1309ms total)
T0C94 003:323 JLINK_WriteReg(R7, 0x00000000)  returns 0x00 (0000ms, 1309ms total)
T0C94 003:323 JLINK_WriteReg(R8, 0x00000000)  returns 0x00 (0000ms, 1309ms total)
T0C94 003:323 JLINK_WriteReg(R9, 0x2000016C)  returns 0x00 (0000ms, 1309ms total)
T0C94 003:323 JLINK_WriteReg(R10, 0x00000000)  returns 0x00 (0000ms, 1309ms total)
T0C94 003:323 JLINK_WriteReg(R11, 0x00000000)  returns 0x00 (0000ms, 1309ms total)
T0C94 003:323 JLINK_WriteReg(R12, 0x00000000)  returns 0x00 (0000ms, 1309ms total)
T0C94 003:323 JLINK_WriteReg(R13 (SP), 0x20000800)  returns 0x00 (0000ms, 1309ms total)
T0C94 003:323 JLINK_WriteReg(R14, 0x20000001)  returns 0x00 (0000ms, 1309ms total)
T0C94 003:323 JLINK_WriteReg(R15 (PC), 0x200000FA)  returns 0x00 (0000ms, 1309ms total)
T0C94 003:323 JLINK_WriteReg(XPSR, 0x01000000)  returns 0x00 (0000ms, 1309ms total)
T0C94 003:323 JLINK_WriteReg(MSP, 0x20000800)  returns 0x00 (0000ms, 1309ms total)
T0C94 003:323 JLINK_WriteReg(PSP, 0x20000800)  returns 0x00 (0000ms, 1309ms total)
T0C94 003:323 JLINK_WriteReg(CFBP, 0x00000000)  returns 0x00 (0000ms, 1309ms total)
T0C94 003:323 JLINK_SetBPEx(Addr = 0x20000000, Type = 0xFFFFFFF2)  returns 0x0000000B (0000ms, 1309ms total)
T0C94 003:323 JLINK_Go() (0004ms, 1313ms total)
T0C94 003:327 JLINK_IsHalted()  returns FALSE (0002ms, 1315ms total)
T0C94 003:392 JLINK_IsHalted() -- CPU_ReadMem(2 bytes @ 0x20000000)  returns TRUE (0007ms, 1320ms total)
T0C94 003:399 JLINK_ReadReg(R15 (PC))  returns 0x20000000 (0001ms, 1314ms total)
T0C94 003:400 JLINK_ClrBPEx(BPHandle = 0x0000000B)  returns 0x00 (0000ms, 1314ms total)
T0C94 003:400 JLINK_ReadReg(R0)  returns 0x00000000 (0000ms, 1314ms total)
T0C94 003:401 JLINK_WriteMem(0x20000170, 0x0290 Bytes, ...) -- Data:  28 46 03 F0 D8 FD 07 46 60 1C 80 00 78 4A 11 58 ... -- CPU_WriteMem(656 bytes @ 0x20000170)  returns 0x290 (0009ms, 1323ms total)
T0C94 003:410 JLINK_WriteMem(0x20000400, 0x0170 Bytes, ...) -- Data:  00 02 00 F0 7B FC 00 21 20 02 00 F0 77 FC 24 E0 ... -- CPU_WriteMem(368 bytes @ 0x20000400)  returns 0x170 (0005ms, 1328ms total)
T0C94 003:416 JLINK_WriteReg(R0, 0x08001C00)  returns 0x00 (0000ms, 1328ms total)
T0C94 003:416 JLINK_WriteReg(R1, 0x00000400)  returns 0x00 (0000ms, 1328ms total)
T0C94 003:416 JLINK_WriteReg(R2, 0x20000170)  returns 0x00 (0000ms, 1328ms total)
T0C94 003:416 JLINK_WriteReg(R3, 0x00000000)  returns 0x00 (0000ms, 1328ms total)
T0C94 003:416 JLINK_WriteReg(R4, 0x00000000)  returns 0x00 (0000ms, 1328ms total)
T0C94 003:416 JLINK_WriteReg(R5, 0x00000000)  returns 0x00 (0000ms, 1328ms total)
T0C94 003:416 JLINK_WriteReg(R6, 0x00000000)  returns 0x00 (0000ms, 1328ms total)
T0C94 003:416 JLINK_WriteReg(R7, 0x00000000)  returns 0x00 (0000ms, 1328ms total)
T0C94 003:416 JLINK_WriteReg(R8, 0x00000000)  returns 0x00 (0000ms, 1328ms total)
T0C94 003:416 JLINK_WriteReg(R9, 0x2000016C)  returns 0x00 (0000ms, 1328ms total)
T0C94 003:416 JLINK_WriteReg(R10, 0x00000000)  returns 0x00 (0000ms, 1328ms total)
T0C94 003:416 JLINK_WriteReg(R11, 0x00000000)  returns 0x00 (0000ms, 1328ms total)
T0C94 003:416 JLINK_WriteReg(R12, 0x00000000)  returns 0x00 (0000ms, 1328ms total)
T0C94 003:416 JLINK_WriteReg(R13 (SP), 0x20000800)  returns 0x00 (0000ms, 1328ms total)
T0C94 003:416 JLINK_WriteReg(R14, 0x20000001)  returns 0x00 (0000ms, 1328ms total)
T0C94 003:416 JLINK_WriteReg(R15 (PC), 0x200000FA)  returns 0x00 (0000ms, 1328ms total)
T0C94 003:416 JLINK_WriteReg(XPSR, 0x01000000)  returns 0x00 (0000ms, 1328ms total)
T0C94 003:416 JLINK_WriteReg(MSP, 0x20000800)  returns 0x00 (0000ms, 1328ms total)
T0C94 003:416 JLINK_WriteReg(PSP, 0x20000800)  returns 0x00 (0000ms, 1328ms total)
T0C94 003:416 JLINK_WriteReg(CFBP, 0x00000000)  returns 0x00 (0000ms, 1328ms total)
T0C94 003:416 JLINK_SetBPEx(Addr = 0x20000000, Type = 0xFFFFFFF2)  returns 0x0000000C (0000ms, 1328ms total)
T0C94 003:416 JLINK_Go() (0004ms, 1332ms total)
T0C94 003:420 JLINK_IsHalted()  returns FALSE (0001ms, 1333ms total)
T0C94 003:474 JLINK_IsHalted() -- CPU_ReadMem(2 bytes @ 0x20000000)  returns TRUE (0007ms, 1339ms total)
T0C94 003:481 JLINK_ReadReg(R15 (PC))  returns 0x20000000 (0000ms, 1332ms total)
T0C94 003:481 JLINK_ClrBPEx(BPHandle = 0x0000000C)  returns 0x00 (0000ms, 1332ms total)
T0C94 003:481 JLINK_ReadReg(R0)  returns 0x00000000 (0000ms, 1332ms total)
T0C94 003:484 JLINK_WriteMem(0x20000170, 0x0290 Bytes, ...) -- Data:  4D 07 EE 0E 15 46 B5 40 2B 46 CD 10 AE 00 05 46 ... -- CPU_WriteMem(656 bytes @ 0x20000170)  returns 0x290 (0009ms, 1341ms total)
T0C94 003:493 JLINK_WriteMem(0x20000400, 0x0170 Bytes, ...) -- Data:  9D 49 09 6A 49 08 49 00 9B 4A 11 62 11 46 09 6A ... -- CPU_WriteMem(368 bytes @ 0x20000400)  returns 0x170 (0005ms, 1346ms total)
T0C94 003:498 JLINK_WriteReg(R0, 0x08002000)  returns 0x00 (0000ms, 1346ms total)
T0C94 003:498 JLINK_WriteReg(R1, 0x00000400)  returns 0x00 (0000ms, 1346ms total)
T0C94 003:498 JLINK_WriteReg(R2, 0x20000170)  returns 0x00 (0000ms, 1346ms total)
T0C94 003:498 JLINK_WriteReg(R3, 0x00000000)  returns 0x00 (0000ms, 1346ms total)
T0C94 003:498 JLINK_WriteReg(R4, 0x00000000)  returns 0x00 (0000ms, 1346ms total)
T0C94 003:498 JLINK_WriteReg(R5, 0x00000000)  returns 0x00 (0000ms, 1346ms total)
T0C94 003:498 JLINK_WriteReg(R6, 0x00000000)  returns 0x00 (0000ms, 1346ms total)
T0C94 003:498 JLINK_WriteReg(R7, 0x00000000)  returns 0x00 (0000ms, 1346ms total)
T0C94 003:498 JLINK_WriteReg(R8, 0x00000000)  returns 0x00 (0000ms, 1346ms total)
T0C94 003:498 JLINK_WriteReg(R9, 0x2000016C)  returns 0x00 (0000ms, 1346ms total)
T0C94 003:498 JLINK_WriteReg(R10, 0x00000000)  returns 0x00 (0000ms, 1346ms total)
T0C94 003:498 JLINK_WriteReg(R11, 0x00000000)  returns 0x00 (0000ms, 1346ms total)
T0C94 003:498 JLINK_WriteReg(R12, 0x00000000)  returns 0x00 (0000ms, 1346ms total)
T0C94 003:499 JLINK_WriteReg(R13 (SP), 0x20000800)  returns 0x00 (0000ms, 1346ms total)
T0C94 003:499 JLINK_WriteReg(R14, 0x20000001)  returns 0x00 (0000ms, 1346ms total)
T0C94 003:499 JLINK_WriteReg(R15 (PC), 0x200000FA)  returns 0x00 (0000ms, 1346ms total)
T0C94 003:499 JLINK_WriteReg(XPSR, 0x01000000)  returns 0x00 (0000ms, 1346ms total)
T0C94 003:499 JLINK_WriteReg(MSP, 0x20000800)  returns 0x00 (0000ms, 1346ms total)
T0C94 003:499 JLINK_WriteReg(PSP, 0x20000800)  returns 0x00 (0000ms, 1346ms total)
T0C94 003:499 JLINK_WriteReg(CFBP, 0x00000000)  returns 0x00 (0000ms, 1346ms total)
T0C94 003:499 JLINK_SetBPEx(Addr = 0x20000000, Type = 0xFFFFFFF2)  returns 0x0000000D (0000ms, 1346ms total)
T0C94 003:499 JLINK_Go() (0005ms, 1351ms total)
T0C94 003:504 JLINK_IsHalted()  returns FALSE (0001ms, 1352ms total)
T0C94 003:512 JLINK_IsHalted()  returns FALSE (0001ms, 1352ms total)
T0C94 003:514 JLINK_IsHalted()  returns FALSE (0001ms, 1352ms total)
T0C94 003:516 JLINK_IsHalted()  returns FALSE (0001ms, 1352ms total)
T0C94 003:518 JLINK_IsHalted()  returns FALSE (0001ms, 1352ms total)
T0C94 003:574 JLINK_IsHalted() -- CPU_ReadMem(2 bytes @ 0x20000000)  returns TRUE (0007ms, 1358ms total)
T0C94 003:581 JLINK_ReadReg(R15 (PC))  returns 0x20000000 (0000ms, 1351ms total)
T0C94 003:581 JLINK_ClrBPEx(BPHandle = 0x0000000D)  returns 0x00 (0000ms, 1351ms total)
T0C94 003:581 JLINK_ReadReg(R0)  returns 0x00000000 (0000ms, 1351ms total)
T0C94 003:585 JLINK_WriteMem(0x20000170, 0x0290 Bytes, ...) -- Data:  11 43 41 4A 51 60 11 46 09 6B 92 15 91 43 3E 4A ... -- CPU_WriteMem(656 bytes @ 0x20000170)  returns 0x290 (0009ms, 1360ms total)
T0C94 003:594 JLINK_WriteMem(0x20000400, 0x0170 Bytes, ...) -- Data:  03 21 89 04 08 40 01 21 89 04 88 42 02 D1 20 68 ... -- CPU_WriteMem(368 bytes @ 0x20000400)  returns 0x170 (0005ms, 1365ms total)
T0C94 003:599 JLINK_WriteReg(R0, 0x08002400)  returns 0x00 (0000ms, 1365ms total)
T0C94 003:599 JLINK_WriteReg(R1, 0x00000400)  returns 0x00 (0000ms, 1365ms total)
T0C94 003:599 JLINK_WriteReg(R2, 0x20000170)  returns 0x00 (0000ms, 1365ms total)
T0C94 003:600 JLINK_WriteReg(R3, 0x00000000)  returns 0x00 (0000ms, 1365ms total)
T0C94 003:600 JLINK_WriteReg(R4, 0x00000000)  returns 0x00 (0000ms, 1365ms total)
T0C94 003:600 JLINK_WriteReg(R5, 0x00000000)  returns 0x00 (0000ms, 1365ms total)
T0C94 003:600 JLINK_WriteReg(R6, 0x00000000)  returns 0x00 (0000ms, 1365ms total)
T0C94 003:600 JLINK_WriteReg(R7, 0x00000000)  returns 0x00 (0000ms, 1365ms total)
T0C94 003:600 JLINK_WriteReg(R8, 0x00000000)  returns 0x00 (0000ms, 1365ms total)
T0C94 003:600 JLINK_WriteReg(R9, 0x2000016C)  returns 0x00 (0000ms, 1365ms total)
T0C94 003:600 JLINK_WriteReg(R10, 0x00000000)  returns 0x00 (0000ms, 1365ms total)
T0C94 003:600 JLINK_WriteReg(R11, 0x00000000)  returns 0x00 (0000ms, 1365ms total)
T0C94 003:600 JLINK_WriteReg(R12, 0x00000000)  returns 0x00 (0000ms, 1365ms total)
T0C94 003:600 JLINK_WriteReg(R13 (SP), 0x20000800)  returns 0x00 (0000ms, 1365ms total)
T0C94 003:600 JLINK_WriteReg(R14, 0x20000001)  returns 0x00 (0000ms, 1365ms total)
T0C94 003:600 JLINK_WriteReg(R15 (PC), 0x200000FA)  returns 0x00 (0000ms, 1365ms total)
T0C94 003:600 JLINK_WriteReg(XPSR, 0x01000000)  returns 0x00 (0000ms, 1365ms total)
T0C94 003:600 JLINK_WriteReg(MSP, 0x20000800)  returns 0x00 (0000ms, 1365ms total)
T0C94 003:600 JLINK_WriteReg(PSP, 0x20000800)  returns 0x00 (0000ms, 1365ms total)
T0C94 003:600 JLINK_WriteReg(CFBP, 0x00000000)  returns 0x00 (0000ms, 1365ms total)
T0C94 003:600 JLINK_SetBPEx(Addr = 0x20000000, Type = 0xFFFFFFF2)  returns 0x0000000E (0000ms, 1365ms total)
T0C94 003:600 JLINK_Go() (0005ms, 1370ms total)
T0C94 003:605 JLINK_IsHalted()  returns FALSE (0001ms, 1371ms total)
T0C94 003:609 JLINK_IsHalted()  returns FALSE (0001ms, 1371ms total)
T0C94 003:611 JLINK_IsHalted()  returns FALSE (0001ms, 1371ms total)
T0C94 003:617 JLINK_IsHalted()  returns FALSE (0001ms, 1371ms total)
T0C94 003:619 JLINK_IsHalted()  returns FALSE (0001ms, 1371ms total)
T0C94 003:621 JLINK_IsHalted()  returns FALSE (0001ms, 1371ms total)
T0C94 003:623 JLINK_IsHalted()  returns FALSE (0001ms, 1371ms total)
T0C94 003:625 JLINK_IsHalted()  returns FALSE (0001ms, 1371ms total)
T0C94 003:627 JLINK_IsHalted()  returns FALSE (0001ms, 1371ms total)
T0C94 003:681 JLINK_IsHalted() -- CPU_ReadMem(2 bytes @ 0x20000000)  returns TRUE (0007ms, 1377ms total)
T0C94 003:688 JLINK_ReadReg(R15 (PC))  returns 0x20000000 (0000ms, 1370ms total)
T0C94 003:688 JLINK_ClrBPEx(BPHandle = 0x0000000E)  returns 0x00 (0000ms, 1370ms total)
T0C94 003:688 JLINK_ReadReg(R0)  returns 0x00000000 (0000ms, 1370ms total)
T0C94 003:689 JLINK_WriteMem(0x20000170, 0x0290 Bytes, ...) -- Data:  01 21 09 06 08 43 08 49 48 62 70 47 01 46 00 20 ... -- CPU_WriteMem(656 bytes @ 0x20000170)  returns 0x290 (0008ms, 1378ms total)
T0C94 003:697 JLINK_WriteMem(0x20000400, 0x0170 Bytes, ...) -- Data:  00 26 00 20 00 90 00 2D 09 D1 6A 48 80 68 40 21 ... -- CPU_WriteMem(368 bytes @ 0x20000400)  returns 0x170 (0005ms, 1383ms total)
T0C94 003:702 JLINK_WriteReg(R0, 0x08002800)  returns 0x00 (0000ms, 1383ms total)
T0C94 003:703 JLINK_WriteReg(R1, 0x00000400)  returns 0x00 (0000ms, 1384ms total)
T0C94 003:703 JLINK_WriteReg(R2, 0x20000170)  returns 0x00 (0000ms, 1384ms total)
T0C94 003:703 JLINK_WriteReg(R3, 0x00000000)  returns 0x00 (0000ms, 1384ms total)
T0C94 003:703 JLINK_WriteReg(R4, 0x00000000)  returns 0x00 (0000ms, 1384ms total)
T0C94 003:703 JLINK_WriteReg(R5, 0x00000000)  returns 0x00 (0000ms, 1384ms total)
T0C94 003:703 JLINK_WriteReg(R6, 0x00000000)  returns 0x00 (0000ms, 1384ms total)
T0C94 003:703 JLINK_WriteReg(R7, 0x00000000)  returns 0x00 (0000ms, 1384ms total)
T0C94 003:703 JLINK_WriteReg(R8, 0x00000000)  returns 0x00 (0000ms, 1384ms total)
T0C94 003:703 JLINK_WriteReg(R9, 0x2000016C)  returns 0x00 (0000ms, 1384ms total)
T0C94 003:703 JLINK_WriteReg(R10, 0x00000000)  returns 0x00 (0000ms, 1384ms total)
T0C94 003:703 JLINK_WriteReg(R11, 0x00000000)  returns 0x00 (0000ms, 1384ms total)
T0C94 003:703 JLINK_WriteReg(R12, 0x00000000)  returns 0x00 (0000ms, 1384ms total)
T0C94 003:703 JLINK_WriteReg(R13 (SP), 0x20000800)  returns 0x00 (0000ms, 1384ms total)
T0C94 003:703 JLINK_WriteReg(R14, 0x20000001)  returns 0x00 (0000ms, 1384ms total)
T0C94 003:703 JLINK_WriteReg(R15 (PC), 0x200000FA)  returns 0x00 (0001ms, 1385ms total)
T0C94 003:704 JLINK_WriteReg(XPSR, 0x01000000)  returns 0x00 (0000ms, 1385ms total)
T0C94 003:704 JLINK_WriteReg(MSP, 0x20000800)  returns 0x00 (0000ms, 1385ms total)
T0C94 003:704 JLINK_WriteReg(PSP, 0x20000800)  returns 0x00 (0000ms, 1385ms total)
T0C94 003:704 JLINK_WriteReg(CFBP, 0x00000000)  returns 0x00 (0000ms, 1385ms total)
T0C94 003:704 JLINK_SetBPEx(Addr = 0x20000000, Type = 0xFFFFFFF2)  returns 0x0000000F (0000ms, 1385ms total)
T0C94 003:704 JLINK_Go() (0004ms, 1389ms total)
T0C94 003:708 JLINK_IsHalted()  returns FALSE (0002ms, 1391ms total)
T0C94 003:711 JLINK_IsHalted()  returns FALSE (0001ms, 1390ms total)
T0C94 003:713 JLINK_IsHalted()  returns FALSE (0001ms, 1390ms total)
T0C94 003:715 JLINK_IsHalted()  returns FALSE (0001ms, 1390ms total)
T0C94 003:717 JLINK_IsHalted()  returns FALSE (0001ms, 1390ms total)
T0C94 003:719 JLINK_IsHalted()  returns FALSE (0001ms, 1390ms total)
T0C94 003:721 JLINK_IsHalted()  returns FALSE (0001ms, 1390ms total)
T0C94 003:723 JLINK_IsHalted()  returns FALSE (0001ms, 1390ms total)
T0C94 003:725 JLINK_IsHalted()  returns FALSE (0001ms, 1390ms total)
T0C94 003:727 JLINK_IsHalted()  returns FALSE (0001ms, 1390ms total)
T0C94 003:729 JLINK_IsHalted()  returns FALSE (0001ms, 1390ms total)
T0C94 003:731 JLINK_IsHalted()  returns FALSE (0001ms, 1390ms total)
T0C94 003:733 JLINK_IsHalted()  returns FALSE (0001ms, 1390ms total)
T0C94 003:735 JLINK_IsHalted()  returns FALSE (0001ms, 1390ms total)
T0C94 003:737 JLINK_IsHalted() -- CPU_ReadMem(2 bytes @ 0x20000000)  returns TRUE (0007ms, 1396ms total)
T0C94 003:744 JLINK_ReadReg(R15 (PC))  returns 0x20000000 (0000ms, 1389ms total)
T0C94 003:744 JLINK_ClrBPEx(BPHandle = 0x0000000F)  returns 0x00 (0000ms, 1389ms total)
T0C94 003:744 JLINK_ReadReg(R0)  returns 0x00000000 (0000ms, 1389ms total)
T0C94 003:744 JLINK_WriteMem(0x20000170, 0x0290 Bytes, ...) -- Data:  61 78 09 02 08 43 A1 78 08 43 21 78 49 03 08 43 ... -- CPU_WriteMem(656 bytes @ 0x20000170)  returns 0x290 (0009ms, 1398ms total)
T0C94 003:753 JLINK_WriteMem(0x20000400, 0x0170 Bytes, ...) -- Data:  00 9C 64 1C 00 94 01 25 AD 03 00 9C AC 42 01 D0 ... -- CPU_WriteMem(368 bytes @ 0x20000400)  returns 0x170 (0005ms, 1403ms total)
T0C94 003:758 JLINK_WriteReg(R0, 0x08002C00)  returns 0x00 (0001ms, 1404ms total)
T0C94 003:759 JLINK_WriteReg(R1, 0x00000400)  returns 0x00 (0000ms, 1404ms total)
T0C94 003:759 JLINK_WriteReg(R2, 0x20000170)  returns 0x00 (0001ms, 1405ms total)
T0C94 003:760 JLINK_WriteReg(R3, 0x00000000)  returns 0x00 (0000ms, 1405ms total)
T0C94 003:760 JLINK_WriteReg(R4, 0x00000000)  returns 0x00 (0000ms, 1405ms total)
T0C94 003:760 JLINK_WriteReg(R5, 0x00000000)  returns 0x00 (0000ms, 1405ms total)
T0C94 003:760 JLINK_WriteReg(R6, 0x00000000)  returns 0x00 (0000ms, 1405ms total)
T0C94 003:760 JLINK_WriteReg(R7, 0x00000000)  returns 0x00 (0000ms, 1405ms total)
